Frequency [Hz]	Re(Zlong) [Ohm]	Im(Zlong) [Ohm]
1.00000000e-06 2.96052488e-12 4.02218623e-11
1.00000000e-05 2.95975525e-11 3.58823620e-10
1.00000000e-05 2.95975525e-11 3.58823620e-10
1.04896438e-05 3.10464930e-11 3.75448291e-10
1.10032628e-05 3.25663589e-11 3.92840718e-10
1.15420307e-05 3.41606212e-11 4.11036231e-10
1.21071792e-05 3.58329212e-11 4.30071777e-10
1.46276022e-05 4.32906779e-11 5.14389899e-10
1.76727166e-05 5.23003721e-11 6.15176130e-10
2.34938921e-05 6.95221036e-11 8.05204225e-10
3.12324912e-05 9.24136062e-11 1.05367494e-09
3.76391641e-05 1.11362967e-10 1.25658305e-09
4.53600279e-05 1.34197029e-10 1.49840027e-09
9.04344754e-05 2.67460262e-10 2.86983638e-09
1.80299588e-04 5.32986909e-10 5.48735712e-09
1.92606385e-04 5.69336613e-10 5.83796920e-09
2.05753213e-04 6.08164275e-10 6.21088013e-09
4.59568500e-04 1.35724240e-09 1.31775852e-08
1.02648801e-03 3.02771274e-09 2.78823125e-08
1.82671870e-03 5.38125385e-09 4.76411535e-08
3.25079415e-03 9.56032384e-09 8.12659619e-08
5.00729133e-03 1.47023934e-08 1.21123300e-07
7.71287426e-03 2.26016388e-08 1.80335760e-07
2.33582234e-02 6.79397302e-08 4.97890868e-07
7.07397242e-02 2.03164911e-07 1.36290238e-06
8.63347353e-02 2.47195588e-07 1.63177899e-06
1.05367763e-01 3.00679221e-07 1.95307261e-06
2.76081433e-01 7.71155686e-07 4.63518841e-06
7.23380240e-01 1.95504184e-06 1.09107575e-05
2.07443376e+00 5.30284903e-06 2.75666107e-05
5.94884293e+00 1.39667835e-05 6.90564099e-05
6.63362949e+00 1.54058907e-05 7.59090535e-05
7.39724359e+00 1.69858722e-05 8.34377833e-05
2.24023447e+01 4.46291656e-05 2.18085791e-04
6.78448726e+01 1.11490061e-04 5.73040721e-04
1.84256102e+02 2.48385616e-04 1.38764815e-03
5.00410858e+02 5.80295310e-04 3.41654060e-03
5.05071733e+02 5.85248289e-04 3.44545040e-03
5.09776020e+02 5.90253153e-04 3.47460770e-03
1.21635116e+03 1.43406800e-03 7.66441850e-03
2.90227492e+03 4.20916364e-03 1.65415407e-02
5.78627751e+03 1.02629054e-02 2.87004580e-02
1.15361254e+04 2.20861326e-02 4.56188230e-02
1.84818299e+04 3.35259162e-02 6.04414269e-02
2.96094247e+04 4.80209415e-02 7.99293776e-02
3.75250158e+04 5.70331858e-02 9.22171744e-02
4.75567096e+04 6.76836346e-02 1.06432915e-01
4.98852945e+04 7.00636848e-02 1.09542743e-01
5.23278972e+04 7.25273589e-02 1.12734485e-01
5.35936893e+04 7.37912611e-02 1.14361165e-01
5.48901004e+04 7.50768921e-02 1.16008437e-01
5.62178712e+04 7.63845011e-02 1.17676346e-01
5.75777603e+04 7.77143253e-02 1.19364941e-01
6.32877788e+04 8.31971831e-02 1.26249094e-01
6.95640629e+04 8.90435963e-02 1.33463038e-01
8.02067220e+04 9.85551305e-02 1.44964631e-01
9.24776097e+04 1.08951242e-01 1.57275295e-01
1.01520388e+05 1.16263941e-01 1.65810033e-01
1.11447400e+05 1.23989481e-01 1.74737865e-01
1.57362155e+05 1.56463498e-01 2.11524512e-01
2.22193142e+05 1.95976581e-01 2.55081456e-01
2.29651149e+05 2.00173120e-01 2.59645978e-01
2.37359488e+05 2.04447002e-01 2.64284214e-01
3.54738569e+05 2.63136717e-01 3.27110279e-01
5.30163986e+05 3.35922078e-01 4.03474982e-01
7.07243753e+05 3.98440239e-01 4.68224141e-01
9.43469831e+05 4.71026862e-01 5.42778082e-01
1.17094019e+06 5.32929223e-01 6.05994854e-01
1.45325360e+06 6.02051211e-01 6.76305294e-01
2.52902537e+06 8.18218235e-01 8.95017656e-01
4.40113777e+06 1.10414187e+00 1.18289854e+00
4.86212437e+06 1.16454778e+00 1.24360627e+00
5.37139590e+06 1.22805335e+00 1.30740062e+00
5.42142560e+06 1.23412705e+00 1.31350056e+00
5.47192128e+06 1.24022909e+00 1.31962874e+00
8.77562834e+06 1.59187222e+00 1.67248038e+00
1.40739694e+07 2.03745195e+00 2.11908998e+00
2.38332390e+07 2.67592070e+00 2.75862906e+00
4.03598491e+07 3.50689520e+00 3.59079912e+00
4.26195528e+07 3.60599477e+00 3.69004199e+00
4.50057748e+07 3.70783056e+00 3.79202659e+00
7.83213241e+07 4.91741281e+00 5.00359138e+00
1.36298727e+08 6.51276685e+00 6.60253492e+00
2.24617827e+08 8.38300354e+00 8.47893023e+00
3.70166102e+08 1.07829020e+01 1.08904425e+01
3.71885987e+08 1.08080919e+01 1.09157782e+01
3.73613864e+08 1.08333402e+01 1.09411731e+01
4.14694737e+08 1.14172677e+01 1.15286372e+01
4.60292674e+08 1.20324037e+01 1.21478010e+01
6.40572529e+08 1.42068716e+01 1.43390371e+01
8.91461428e+08 1.67716339e+01 1.69286678e+01
1.25873095e+09 1.99420561e+01 2.01371592e+01
1.77731034e+09 2.37117730e+01 2.39615068e+01
2.24960241e+09 2.66906714e+01 2.69893308e+01
2.84739860e+09 3.00481256e+01 3.04059955e+01
3.20548482e+09 3.18948529e+01 3.22862620e+01
3.60860363e+09 3.38576461e+01 3.42848085e+01
3.69589439e+09 3.42684669e+01 3.47030737e+01
3.78529668e+09 3.46844100e+01 3.51265279e+01
3.83080557e+09 3.48943247e+01 3.53402213e+01
3.87686158e+09 3.51055469e+01 3.55552366e+01
3.92347131e+09 3.53180856e+01 3.57715822e+01
3.97064140e+09 3.55319500e+01 3.59892665e+01
4.16287346e+09 3.63911831e+01 3.68637205e+01
4.36441211e+09 3.72718999e+01 3.77597886e+01
4.68639258e+09 3.86397436e+01 3.91508391e+01
5.03212686e+09 4.00598635e+01 4.05940296e+01
5.27241900e+09 4.10199820e+01 4.15690328e+01
5.52418549e+09 4.20042320e+01 4.25678517e+01
6.56422457e+09 4.58657422e+01 4.64781932e+01
7.80007193e+09 5.01075387e+01 5.07537670e+01
7.92989788e+09 5.05350550e+01 5.11832856e+01
8.06188467e+09 5.09665249e+01 5.16164887e+01
9.85570028e+09 5.65529903e+01 5.71962121e+01
1.20486502e+10 6.28274713e+01 6.33858475e+01
1.40608315e+10 6.81919163e+01 6.85987397e+01
1.60730128e+10 7.32737333e+01 7.34589562e+01
1.80106127e+10 7.79584109e+01 7.78643197e+01
1.99482125e+10 8.24797231e+01 8.20416644e+01
2.29676858e+10 8.92716149e+01 8.81680293e+01
2.59871591e+10 9.58297678e+01 9.39009438e+01
3.03510234e+10 1.05022529e+02 1.01611537e+02
3.47148877e+10 1.14001491e+02 1.08752515e+02
3.65329514e+10 1.17704363e+02 1.11580265e+02
3.83510152e+10 1.21393973e+02 1.14328195e+02
3.85296177e+10 1.21755921e+02 1.14593983e+02
3.87082202e+10 1.22117796e+02 1.14859039e+02
5.03933866e+10 1.45831514e+02 1.30723596e+02
6.20785529e+10 1.70168693e+02 1.43897087e+02
8.36020235e+10 2.18088087e+02 1.60992442e+02
1.05125494e+11 2.70280863e+02 1.67284075e+02
1.08068425e+11 2.77678944e+02 1.67184431e+02
1.11011355e+11 2.85121154e+02 1.66837603e+02
1.52099463e+11 3.88744397e+02 1.34373671e+02
1.93187571e+11 4.72466900e+02 5.13161053e+01
2.55778591e+11 5.09289235e+02 -1.31639732e+02
3.18369610e+11 4.26923254e+02 -2.93296597e+02
3.19109223e+11 4.25437736e+02 -2.94743188e+02
3.19848836e+11 4.23944065e+02 -2.96176635e+02
3.37433394e+11 3.86389142e+02 -3.26298209e+02
3.55017952e+11 3.46188424e+02 -3.48682134e+02
4.24541745e+11 1.92141085e+02 -3.69119242e+02
4.94065537e+11 8.65536513e+01 -3.22922464e+02
5.95839551e+11 2.17270961e+01 -2.39182666e+02
6.97613565e+11 5.99696767e+00 -1.83147224e+02
7.69966767e+11 3.01490491e+00 -1.57635537e+02
8.42319969e+11 1.78478564e+00 -1.39078859e+02
8.62656643e+11 1.57091385e+00 -1.34722914e+02
8.82993317e+11 1.39148366e+00 -1.30664815e+02
9.38515529e+11 1.02545474e+00 -1.20858447e+02
9.94037741e+11 7.78200346e-01 -1.12546648e+02
1.00606044e+12 7.35374204e-01 -1.10908406e+02
1.01808314e+12 6.95599367e-01 -1.09321236e+02
1.03039666e+12 6.57741675e-01 -1.07745970e+02
1.04271019e+12 6.22540307e-01 -1.06219096e+02
1.10827532e+12 4.71323615e-01 -9.88137929e+01
1.17384046e+12 3.64542114e-01 -9.24321673e+01
1.32980521e+12 2.11657226e-01 -8.02516358e+01
1.48576996e+12 1.32170008e-01 -7.10040463e+01
1.79182809e+12 6.08660249e-02 -5.80132138e+01
2.09788621e+12 3.21805070e-02 -4.90864431e+01
2.38271846e+12 1.94124640e-02 -4.29448526e+01
2.66755072e+12 1.24809978e-02 -3.81638659e+01
2.95406151e+12 8.41991737e-03 -3.43102165e+01
3.24057230e+12 5.91915969e-03 -3.11512219e+01
3.24810056e+12 5.86745643e-03 -3.10758490e+01
3.25562882e+12 5.81634049e-03 -3.10008294e+01
4.31042301e+12 2.06296885e-03 -2.30961351e+01
5.36521719e+12 9.55116303e-04 -1.82927354e+01
7.35101966e+12 3.38651191e-04 -1.29388588e+01
9.33682213e+12 1.63637770e-04 -9.80702949e+00
9.59820135e+12 1.50945415e-04 -9.48775510e+00
9.85958056e+12 1.39624889e-04 -9.18468301e+00
1.15838998e+13 8.85072872e-05 -7.51418922e+00
1.33082190e+13 6.06176331e-05 -6.25962109e+00
1.42476067e+13 5.05154672e-05 -5.69903042e+00
1.51869943e+13 4.26627348e-05 -5.20543628e+00
1.59417369e+13 3.75563499e-05 -4.84979535e+00
1.66964794e+13 3.32733939e-05 -4.52558196e+00
2.18614840e+13 1.64402783e-05 -2.90717739e+00
2.70264887e+13 9.27578596e-06 -1.93159601e+00
2.84419010e+13 8.04174661e-06 -1.73309915e+00
2.98573133e+13 7.00325444e-06 -1.55678025e+00
4.09082595e+13 2.63569325e-06 -6.91110354e-01
5.19592056e+13 1.09386528e-06 -3.13998201e-01
5.61626621e+13 7.93111642e-07 -2.33229302e-01
6.03661186e+13 5.77700480e-07 -1.73379596e-01
6.24263384e+13 4.95260577e-07 -1.49958835e-01
6.44865582e+13 4.24905342e-07 -1.29716048e-01
7.52561173e+13 1.92538234e-07 -6.08482093e-02
8.60256763e+13 8.81578503e-08 -2.85594292e-02
8.68487398e+13 8.30724048e-08 -2.69550782e-02
8.76718033e+13 7.82828473e-08 -2.54407832e-02
1.08119461e+14 1.80361180e-08 -6.04084768e-03
1.28567118e+14 4.18573651e-09 -1.42914340e-03
1.30724823e+14 3.58844285e-09 -1.22719682e-03
1.32882528e+14 3.07643379e-09 -1.05373950e-03
1.43911211e+14 1.40082441e-09 -4.83241062e-04
1.54939893e+14 6.37888179e-10 -2.21365314e-04
1.71284074e+14 1.98751703e-10 -6.94707001e-05
1.87628254e+14 6.18838135e-11 -2.17554756e-05
1.96801721e+14 3.21365852e-11 -1.13288411e-05
2.05975189e+14 1.66837899e-11 -5.89593082e-06
2.16069626e+14 8.10689933e-12 -2.87191301e-06
2.26164062e+14 3.93780205e-12 -1.39804450e-06
2.31825776e+14 2.62598800e-12 -9.33365042e-07
2.37487490e+14 1.75098090e-12 -6.23024394e-07
2.43170875e+14 1.16559139e-12 -4.15156381e-07
2.48854261e+14 7.75821289e-13 -2.76595935e-07
2.54946759e+14 5.01414748e-13 -1.78939583e-07
2.61039256e+14 3.24023996e-13 -1.15741502e-07
2.64196477e+14 2.58399646e-13 -9.23430439e-08
2.67353697e+14 2.06059280e-13 -7.36714805e-08
2.70587290e+14 1.63417946e-13 -5.84522547e-08
2.73820882e+14 1.29596247e-13 -4.63749051e-08
2.73820882e+14 1.29596247e-13 -4.63749051e-08
5.47641765e+14 3.50755350e-22 -1.27655500e-16
