Frequency [Hz]	Re(Zxquad) [Ohm/m]	Im(Zxquad) [Ohm/m]
1.00000000e-06 -4.15065145e-03 -1.06435196e+06
1.00000000e-05 -3.58306577e-02 -1.06435196e+06
1.10032628e-05 -3.91661538e-02 -1.06435196e+06
1.21071792e-05 -4.28102839e-02 -1.06435196e+06
1.76727166e-05 -6.08425289e-02 -1.06435195e+06
3.12324912e-05 -1.03143283e-01 -1.06435195e+06
4.53600279e-05 -1.45628732e-01 -1.06435194e+06
1.80299588e-04 -5.17593970e-01 -1.06435189e+06
2.05753213e-04 -5.83979262e-01 -1.06435188e+06
1.02648801e-03 -2.50799457e+00 -1.06435156e+06
3.25079415e-03 -7.02463572e+00 -1.06435071e+06
7.71287426e-03 -1.50412364e+01 -1.06434902e+06
7.07397242e-02 -1.00222384e+02 -1.06432586e+06
1.05367763e-01 -1.39378031e+02 -1.06431349e+06
7.23380240e-01 -6.40016152e+02 -1.06410986e+06
5.94884293e+00 -2.77495632e+03 -1.06277082e+06
7.39724359e+00 -3.17487858e+03 -1.06245765e+06
6.78448726e+01 -9.74828804e+03 -1.05488896e+06
5.00410858e+02 -1.96451385e+04 -1.03923438e+06
5.09776020e+02 -1.97826173e+04 -1.03906060e+06
2.90227492e+03 -4.95324155e+04 -1.01828445e+06
1.15361254e+04 -1.22862123e+05 -9.61436645e+05
2.96094247e+04 -1.84527615e+05 -8.65011193e+05
4.75567096e+04 -2.10179183e+05 -8.00576456e+05
5.23278972e+04 -2.14824990e+05 -7.86493236e+05
5.48901004e+04 -2.17073646e+05 -7.79317153e+05
5.75777603e+04 -2.19269855e+05 -7.72051798e+05
6.95640629e+04 -2.27390050e+05 -7.42448434e+05
9.24776097e+04 -2.37556503e+05 -6.95465257e+05
1.11447400e+05 -2.42594541e+05 -6.63368167e+05
2.22193142e+05 -2.48214178e+05 -5.40444380e+05
2.37359488e+05 -2.47655561e+05 -5.28666321e+05
5.30163986e+05 -2.27273416e+05 -3.92153792e+05
9.43469831e+05 -2.01258393e+05 -3.07462792e+05
1.45325360e+06 -1.78797782e+05 -2.53275974e+05
4.40113777e+06 -1.21891826e+05 -1.49861606e+05
5.37139590e+06 -1.12741175e+05 -1.36020315e+05
5.47192128e+06 -1.11912757e+05 -1.34795573e+05
1.40739694e+07 -7.52841735e+04 -8.46789873e+04
4.03598491e+07 -4.67601069e+04 -5.01649746e+04
4.50057748e+07 -4.44503530e+04 -4.75142296e+04
1.36298727e+08 -2.62847705e+04 -2.73402026e+04
3.70166102e+08 -1.61804949e+04 -1.66107262e+04
3.73613864e+08 -1.61071986e+04 -1.65341611e+04
4.60292674e+08 -1.45403263e+04 -1.49019125e+04
8.91461428e+08 -1.04927081e+04 -1.07273196e+04
1.77731034e+09 -7.43896270e+03 -7.62486896e+03
2.84739860e+09 -5.86718210e+03 -6.05038615e+03
3.60860363e+09 -5.20235855e+03 -5.39121092e+03
3.78529668e+09 -5.07718121e+03 -5.26767949e+03
3.87686158e+09 -5.01566572e+03 -5.20704838e+03
3.97064140e+09 -4.95485457e+03 -5.14716215e+03
4.36441211e+09 -4.72102999e+03 -4.91738848e+03
5.03212686e+09 -4.38846270e+03 -4.59207386e+03
5.52418549e+09 -4.18254219e+03 -4.39164058e+03
7.80007193e+09 -3.49630369e+03 -3.73061042e+03
8.06188467e+09 -3.43638431e+03 -3.67350457e+03
1.20486502e+10 -2.77810292e+03 -3.05510213e+03
1.60730128e+10 -2.37810352e+03 -2.69027415e+03
1.99482125e+10 -2.11272256e+03 -2.45501669e+03
2.59871591e+10 -1.82397922e+03 -2.20774536e+03
3.47148877e+10 -1.54987856e+03 -1.98503879e+03
3.83510152e+10 -1.46529107e+03 -1.91957660e+03
3.87082202e+10 -1.45766823e+03 -1.91377041e+03
6.20785529e+10 -1.12740720e+03 -1.68292698e+03
1.05125494e+11 -9.29831897e+02 -1.58715422e+03
1.11011355e+11 -9.25331955e+02 -1.58791520e+03
1.93187571e+11 -1.25415175e+03 -1.63285663e+03
3.18369610e+11 -2.25918724e+03 -6.71749983e+02
3.19848836e+11 -2.26438733e+03 -6.51085601e+02
3.55017952e+11 -2.29646354e+03 -1.41136473e+02
4.94065537e+11 -1.14961163e+03 1.10186741e+03
6.97613565e+11 -8.06311357e+01 5.94574907e+02
8.42319969e+11 -1.17769277e+01 3.32974039e+02
8.82993317e+11 -7.93477806e+00 2.91856450e+02
9.94037741e+11 -3.40756703e+00 2.14188044e+02
1.01808314e+12 -2.91963854e+00 2.01813691e+02
1.04271019e+12 -2.50995663e+00 1.90301423e+02
1.17384046e+12 -1.22861167e+00 1.43569487e+02
1.48576996e+12 -3.28179803e-01 8.45398611e+01
2.09788621e+12 -5.37758141e-02 4.04996490e+01
2.66755072e+12 -1.60729182e-02 2.45891789e+01
3.24057230e+12 -6.19710767e-03 1.64758216e+01
3.25562882e+12 -6.05965199e-03 1.63197888e+01
5.36521719e+12 -5.87639671e-04 5.85335808e+00
9.33682213e+12 -5.60823555e-05 1.83569253e+00
9.85958056e+12 -4.51776163e-05 1.63295876e+00
1.33082190e+13 -1.43029490e-05 8.43067167e-01
1.51869943e+13 -8.76714014e-06 6.22669301e-01
1.66964794e+13 -6.19507683e-06 4.97992894e-01
2.70264887e+13 -1.05739472e-06 1.42744380e-01
2.98573133e+13 -7.23988262e-07 1.06632897e-01
5.19592056e+13 -6.85631845e-08 1.47952452e-02
6.03661186e+13 -3.21571783e-08 7.49482004e-03
6.44865582e+13 -2.25077020e-08 5.40985464e-03
8.60256763e+13 -3.83714220e-09 1.03376199e-03
8.76718033e+13 -3.36749294e-09 9.13095709e-04
1.28567118e+14 -1.46298380e-10 4.41216550e-05
1.32882528e+14 -1.05889396e-10 3.21688978e-05
1.54939893e+14 -2.05453300e-11 6.43617013e-06
1.87628254e+14 -1.85464592e-12 5.99647545e-07
2.05975189e+14 -4.84678151e-13 1.58772301e-07
2.26164062e+14 -1.11147657e-13 3.68423059e-08
2.37487490e+14 -4.87286222e-14 1.62442212e-08
2.48854261e+14 -2.13121324e-14 7.14131652e-09
2.61039256e+14 -8.78849162e-15 2.95959571e-09
2.67353697e+14 -5.55459351e-15 1.87503804e-09
2.73820882e+14 -3.47241842e-15 1.17490186e-09
5.47641765e+14 -8.26829498e-24 2.92962993e-18
